
T67A8 000:035 SEGGER J-Link V5.12f Log File (0000ms, 0018ms total)
T67A8 000:035 DLL Compiled: May 17 2016 16:03:35 (0000ms, 0018ms total)
T67A8 000:035 Logging started @ 2024-05-10 13:50 (0000ms, 0018ms total)
T67A8 000:035 JLINK_SetWarnOutHandler(...) (0000ms, 0018ms total)
T67A8 000:035 JLINK_OpenEx(...)
Firmware: J-Link V9 compiled May  7 2021 16:26:12
Hardware: V9.40
S/N: 69403767
Feature(s): RDI, GDB, FlashDL, FlashBP, JFlash  returns O.K. (0017ms, 0035ms total)
T67A8 000:052 JLINK_SetErrorOutHandler(...) (0000ms, 0035ms total)
T67A8 000:052 JLINK_ExecCommand("ProjectFile = "D:\work\Motor_code\°®ÓÅ±¶220·èÊá\JLinkSettings.ini"", ...)Device "CORTEX-M0" selected.  returns 0x00 (0004ms, 0039ms total)
T67A8 000:061 JLINK_ExecCommand("Device = LKS32MC038Y6P8", ...)Device "CORTEX-M0" selected.  returns 0x00 (0004ms, 0043ms total)
T67A8 000:065 JLINK_ExecCommand("DisableConnectionTimeout", ...)  returns 0x01 (0000ms, 0043ms total)
T67A8 000:065 JLINK_GetHardwareVersion()  returns 0x16F30 (0000ms, 0043ms total)
T67A8 000:065 JLINK_GetDLLVersion()  returns 51206 (0000ms, 0043ms total)
T67A8 000:065 JLINK_GetFirmwareString(...) (0000ms, 0043ms total)
T67A8 000:076 JLINK_GetDLLVersion()  returns 51206 (0000ms, 0043ms total)
T67A8 000:076 JLINK_GetCompileDateTime() (0000ms, 0043ms total)
T67A8 000:078 JLINK_GetFirmwareString(...) (0000ms, 0043ms total)
T67A8 000:079 JLINK_GetHardwareVersion()  returns 0x16F30 (0000ms, 0043ms total)
T67A8 000:083 JLINK_TIF_Select(JLINKARM_TIF_SWD)  returns 0x00 (0001ms, 0044ms total)
T67A8 000:084 JLINK_SetSpeed(5000) (0001ms, 0045ms total)
T67A8 000:085 JLINK_GetId() >0x108 TIF> >0x108 TIF> >0x108 TIF>Found SWD-DP with ID 0x0BB11477 >0x0D TIF> >0x28 TIF> >0x0D TIF> >0x28 TIF>SWD speed too high. Reduced from 4000 kHz to 2700 kHz for stability >0x0D TIF> >0x28 TIF> >0x0D TIF> >0x28 TIF> >0x0D TIF> >0x21 TIF> >0x0D TIF> >0x28 TIF> >0x0D TIF> >0x28 TIF> >0x0D TIF> >0x21 TIF> >0x0D TIF> >0x21 TIF> >0x0D TIF> >0x21 TIF> >0x0D TIF> >0x28 TIF> >0x0D TIF> >0x28 TIF> >0x0D TIF> >0x28 TIF> >0x0D TIF> >0x21 TIF> >0x0D TIF> >0x21 TIF> >0x0D TIF>
 >0x28 TIF> >0x0D TIF> >0x21 TIF> >0x0D TIF> >0x21 TIF>Found Cortex-M0 r0p0, Little endian. -- CPU_ReadMem(4 bytes @ 0xE000EDF0) -- CPU_ReadMem(4 bytes @ 0xE0002000)FPUnit: 2 code (BP) slots and 0 literal slots -- CPU_ReadMem(4 bytes @ 0xE000EDFC) -- CPU_ReadMem(4 bytes @ 0xE0001000) -- CPU_WriteMem(4 bytes @ 0xE0001000)CoreSight components:ROMTbl 0 @ E00FF000 -- CPU_ReadMem(16 bytes @ 0xE00FF000) -- CPU_ReadMem(16 bytes @ 0xE000EFF0) -- CPU_ReadMem(16 bytes @ 0xE000EFE0)
ROMTbl 0 [0]: FFF0F000, CID: B105E00D, PID: 000BB008 SCS -- CPU_ReadMem(16 bytes @ 0xE0001FF0) -- CPU_ReadMem(16 bytes @ 0xE0001FE0)ROMTbl 0 [1]: FFF02000, CID: B105E00D, PID: 000BB00A DWT -- CPU_ReadMem(16 bytes @ 0xE0002FF0) -- CPU_ReadMem(16 bytes @ 0xE0002FE0)ROMTbl 0 [2]: FFF03000, CID: B105E00D, PID: 000BB00B FPB >0x0D TIF> >0x21 TIF>  returns 0x0BB11477 (0129ms, 0174ms total)
T67A8 000:214 JLINK_GetDLLVersion()  returns 51206 (0000ms, 0174ms total)
T67A8 000:214 JLINK_CORE_GetFound()  returns 0x60000FF (0000ms, 0174ms total)
T67A8 000:214 JLINK_GetDebugInfo(0x100) -- Value=0xE00FF000  returns 0x00 (0000ms, 0174ms total)
T67A8 000:215 JLINK_ReadMem (0xE00FF000, 0x0020 Bytes, ...) -- CPU is running -- CPU_ReadMem(32 bytes @ 0xE00FF000) - Data: 03 F0 F0 FF 03 20 F0 FF 03 30 F0 FF 00 00 00 00 ...  returns 0x00 (0001ms, 0175ms total)
T67A8 000:216 JLINK_ReadMem (0xE000EFF0, 0x0010 Bytes, ...) -- CPU is running -- CPU_ReadMem(16 bytes @ 0xE000EFF0) - Data: 0D 00 00 00 E0 00 00 00 05 00 00 00 B1 00 00 00  returns 0x00 (0001ms, 0176ms total)
T67A8 000:217 JLINK_ReadMem (0xE000EFD0, 0x0020 Bytes, ...) -- CPU is running -- CPU_ReadMem(32 bytes @ 0xE000EFD0) - Data: 04 00 00 00 00 00 00 00 00 00 00 00 00 00 00 00 ...  returns 0x00 (0001ms, 0177ms total)
T67A8 000:218 JLINK_ReadMem (0xE0001FF0, 0x0010 Bytes, ...) -- CPU is running -- CPU_ReadMem(16 bytes @ 0xE0001FF0) - Data: 0D 00 00 00 E0 00 00 00 05 00 00 00 B1 00 00 00  returns 0x00 (0001ms, 0178ms total)
T67A8 000:219 JLINK_ReadMem (0xE0001FD0, 0x0020 Bytes, ...) -- CPU is running -- CPU_ReadMem(32 bytes @ 0xE0001FD0) - Data: 04 00 00 00 00 00 00 00 00 00 00 00 00 00 00 00 ...  returns 0x00 (0001ms, 0179ms total)
T67A8 000:220 JLINK_ReadMem (0xE0002FF0, 0x0010 Bytes, ...) -- CPU is running -- CPU_ReadMem(16 bytes @ 0xE0002FF0) - Data: 0D 00 00 00 E0 00 00 00 05 00 00 00 B1 00 00 00  returns 0x00 (0001ms, 0180ms total)
T67A8 000:221 JLINK_ReadMem (0xE0002FD0, 0x0020 Bytes, ...) -- CPU is running -- CPU_ReadMem(32 bytes @ 0xE0002FD0) - Data: 04 00 00 00 00 00 00 00 00 00 00 00 00 00 00 00 ...  returns 0x00 (0003ms, 0183ms total)
T67A8 000:224 JLINK_ReadMemU32(0xE000ED00, 0x0001 Items, ...) -- CPU is running -- CPU_ReadMem(4 bytes @ 0xE000ED00) - Data: 00 C2 0C 41  returns 0x01 (0000ms, 0183ms total)
T67A8 000:224 JLINK_SetResetType(JLINKARM_RESET_TYPE_NORMAL)  returns JLINKARM_RESET_TYPE_NORMAL (0000ms, 0183ms total)
T67A8 000:224 JLINK_Reset() -- CPU is running -- CPU_WriteMem(4 bytes @ 0xE000EDF0) -- CPU is running -- CPU_WriteMem(4 bytes @ 0xE000EDFC) >0x35 TIF> -- CPU is running -- CPU_WriteMem(4 bytes @ 0xE000ED0C) -- CPU is running -- CPU_ReadMem(4 bytes @ 0xE000EDF0) -- CPU is running -- CPU_ReadMem(4 bytes @ 0xE000EDF0) -- CPU is running -- CPU_WriteMem(4 bytes @ 0xE000EDF0) -- CPU is running -- CPU_WriteMem(4 bytes @ 0xE000EDFC) -- CPU is running -- CPU_ReadMem(4 bytes @ 0xE000EDF0)
 -- CPU_WriteMem(4 bytes @ 0xE0002000) -- CPU_ReadMem(4 bytes @ 0xE000EDFC) -- CPU_ReadMem(4 bytes @ 0xE0001000) -- CPU_WriteMem(4 bytes @ 0xE0001000) (0018ms, 0201ms total)
T67A8 000:242 JLINK_Halt()  returns 0x00 (0000ms, 0201ms total)
T67A8 000:242 JLINK_IsHalted()  returns TRUE (0000ms, 0201ms total)
T67A8 000:242 JLINK_ReadMemU32(0xE000EDF0, 0x0001 Items, ...) -- CPU_ReadMem(4 bytes @ 0xE000EDF0) - Data: 03 00 03 00  returns 0x01 (0001ms, 0202ms total)
T67A8 000:243 JLINK_WriteU32(0xE000EDF0, 0xA05F0003) -- CPU_WriteMem(4 bytes @ 0xE000EDF0)  returns 0x00 (0001ms, 0203ms total)
T67A8 000:244 JLINK_WriteU32(0xE000EDFC, 0x01000000) -- CPU_WriteMem(4 bytes @ 0xE000EDFC)  returns 0x00 (0000ms, 0203ms total)
T67A8 000:249 JLINK_GetHWStatus(...)  returns 0x00 (0000ms, 0203ms total)
T67A8 000:253 JLINK_GetNumBPUnits(Type = 0xFFFFFF00)  returns 0x02 (0000ms, 0203ms total)
T67A8 000:253 JLINK_GetNumBPUnits(Type = 0xF0)  returns 0x2000 (0000ms, 0203ms total)
T67A8 000:253 JLINK_GetNumWPUnits()  returns 0x02 (0000ms, 0203ms total)
T67A8 000:256 JLINK_GetSpeed()  returns 0x960 (0000ms, 0203ms total)
T67A8 000:262 JLINK_ReadMemU32(0xE000E004, 0x0001 Items, ...) -- CPU_ReadMem(4 bytes @ 0xE000E004) - Data: 00 00 00 00  returns 0x01 (0000ms, 0203ms total)
T67A8 000:262 JLINK_Halt()  returns 0x00 (0000ms, 0203ms total)
T67A8 000:262 JLINK_IsHalted()  returns TRUE (0001ms, 0204ms total)
T67A8 000:264 JLINK_WriteMem(0x20000000, 0x018C Bytes, ...) - Data: 00 BE 0A E0 0D 78 2D 06 68 40 08 24 40 00 00 D3 ... -- CPU_WriteMem(396 bytes @ 0x20000000)  returns 0x18C (0005ms, 0208ms total)
T67A8 000:269 JLINK_WriteReg(R0, 0x00000000)  returns 0x00 (0000ms, 0208ms total)
T67A8 000:269 JLINK_WriteReg(R1, 0x00B71B00)  returns 0x00 (0000ms, 0208ms total)
T67A8 000:269 JLINK_WriteReg(R2, 0x00000001)  returns 0x00 (0000ms, 0208ms total)
T67A8 000:269 JLINK_WriteReg(R3, 0x00000000)  returns 0x00 (0000ms, 0208ms total)
T67A8 000:269 JLINK_WriteReg(R4, 0x00000000)  returns 0x00 (0000ms, 0208ms total)
T67A8 000:269 JLINK_WriteReg(R5, 0x00000000)  returns 0x00 (0000ms, 0208ms total)
T67A8 000:269 JLINK_WriteReg(R6, 0x00000000)  returns 0x00 (0000ms, 0208ms total)
T67A8 000:269 JLINK_WriteReg(R7, 0x00000000)  returns 0x00 (0000ms, 0208ms total)
T67A8 000:269 JLINK_WriteReg(R8, 0x00000000)  returns 0x00 (0000ms, 0208ms total)
T67A8 000:269 JLINK_WriteReg(R9, 0x20000188)  returns 0x00 (0000ms, 0208ms total)
T67A8 000:269 JLINK_WriteReg(R10, 0x00000000)  returns 0x00 (0000ms, 0208ms total)
T67A8 000:269 JLINK_WriteReg(R11, 0x00000000)  returns 0x00 (0000ms, 0208ms total)
T67A8 000:269 JLINK_WriteReg(R12, 0x00000000)  returns 0x00 (0000ms, 0208ms total)
T67A8 000:269 JLINK_WriteReg(R13 (SP), 0x20001000)  returns 0x00 (0000ms, 0208ms total)
T67A8 000:269 JLINK_WriteReg(R14, 0x20000001)  returns 0x00 (0000ms, 0208ms total)
T67A8 000:269 JLINK_WriteReg(R15 (PC), 0x20000040)  returns 0x00 (0000ms, 0208ms total)
T67A8 000:269 JLINK_WriteReg(XPSR, 0x01000000)  returns 0x00 (0000ms, 0208ms total)
T67A8 000:269 JLINK_WriteReg(MSP, 0x20001000)  returns 0x00 (0000ms, 0208ms total)
T67A8 000:269 JLINK_WriteReg(PSP, 0x20001000)  returns 0x00 (0000ms, 0208ms total)
T67A8 000:269 JLINK_WriteReg(CFBP, 0x00000000)  returns 0x00 (0000ms, 0208ms total)
T67A8 000:269 JLINK_SetBPEx(Addr = 0x20000000, Type = 0xFFFFFFF2) -- CPU_ReadMem(4 bytes @ 0x20000000) -- CPU_WriteMem(4 bytes @ 0x20000000) -- CPU_ReadMem(4 bytes @ 0x20000000) -- CPU_WriteMem(4 bytes @ 0x20000000) -- CPU_ReadMem(2 bytes @ 0x20000000)  returns 0x00000001 (0002ms, 0210ms total)
T67A8 000:271 JLINK_Go() -- CPU_WriteMem(2 bytes @ 0x20000000) -- CPU_ReadMem(4 bytes @ 0xE0001000) -- CPU_WriteMem(4 bytes @ 0xE0001000) -- CPU_WriteMem(4 bytes @ 0xE0002008) -- CPU_WriteMem(4 bytes @ 0xE000200C) -- CPU_WriteMem(4 bytes @ 0xE0001004) (0007ms, 0217ms total)
T67A8 000:278 JLINK_IsHalted() -- CPU_ReadMem(2 bytes @ 0x20000000)  returns TRUE (0004ms, 0221ms total)
T67A8 000:282 JLINK_ReadReg(R15 (PC))  returns 0x20000000 (0000ms, 0217ms total)
T67A8 000:282 JLINK_ClrBPEx(BPHandle = 0x00000001)  returns 0x00 (0000ms, 0217ms total)
T67A8 000:282 JLINK_ReadReg(R0)  returns 0x00000000 (0000ms, 0217ms total)
T67A8 000:282 JLINK_WriteReg(R0, 0x00000000)  returns 0x00 (0000ms, 0217ms total)
T67A8 000:282 JLINK_WriteReg(R1, 0x00000200)  returns 0x00 (0000ms, 0217ms total)
T67A8 000:282 JLINK_WriteReg(R2, 0x000000FF)  returns 0x00 (0000ms, 0217ms total)
T67A8 000:282 JLINK_WriteReg(R3, 0x00000000)  returns 0x00 (0000ms, 0217ms total)
T67A8 000:282 JLINK_WriteReg(R4, 0x00000000)  returns 0x00 (0000ms, 0217ms total)
T67A8 000:282 JLINK_WriteReg(R5, 0x00000000)  returns 0x00 (0000ms, 0217ms total)
T67A8 000:282 JLINK_WriteReg(R6, 0x00000000)  returns 0x00 (0000ms, 0217ms total)
T67A8 000:282 JLINK_WriteReg(R7, 0x00000000)  returns 0x00 (0000ms, 0217ms total)
T67A8 000:282 JLINK_WriteReg(R8, 0x00000000)  returns 0x00 (0000ms, 0217ms total)
T67A8 000:282 JLINK_WriteReg(R9, 0x20000188)  returns 0x00 (0000ms, 0217ms total)
T67A8 000:282 JLINK_WriteReg(R10, 0x00000000)  returns 0x00 (0000ms, 0217ms total)
T67A8 000:282 JLINK_WriteReg(R11, 0x00000000)  returns 0x00 (0000ms, 0217ms total)
T67A8 000:282 JLINK_WriteReg(R12, 0x00000000)  returns 0x00 (0000ms, 0217ms total)
T67A8 000:282 JLINK_WriteReg(R13 (SP), 0x20001000)  returns 0x00 (0000ms, 0217ms total)
T67A8 000:282 JLINK_WriteReg(R14, 0x20000001)  returns 0x00 (0000ms, 0217ms total)
T67A8 000:282 JLINK_WriteReg(R15 (PC), 0x20000020)  returns 0x00 (0000ms, 0217ms total)
T67A8 000:282 JLINK_WriteReg(XPSR, 0x01000000)  returns 0x00 (0000ms, 0217ms total)
T67A8 000:282 JLINK_WriteReg(MSP, 0x20001000)  returns 0x00 (0000ms, 0217ms total)
T67A8 000:282 JLINK_WriteReg(PSP, 0x20001000)  returns 0x00 (0000ms, 0217ms total)
T67A8 000:282 JLINK_WriteReg(CFBP, 0x00000000)  returns 0x00 (0000ms, 0217ms total)
T67A8 000:282 JLINK_SetBPEx(Addr = 0x20000000, Type = 0xFFFFFFF2)  returns 0x00000002 (0000ms, 0217ms total)
T67A8 000:282 JLINK_Go() -- CPU_ReadMem(4 bytes @ 0xE0001000) -- CPU_WriteMem(4 bytes @ 0xE0001000) (0003ms, 0220ms total)
T67A8 000:285 JLINK_IsHalted() -- CPU_ReadMem(2 bytes @ 0x20000000)  returns TRUE (0005ms, 0225ms total)
T67A8 000:290 JLINK_ReadReg(R15 (PC))  returns 0x20000000 (0000ms, 0220ms total)
T67A8 000:290 JLINK_ClrBPEx(BPHandle = 0x00000002)  returns 0x00 (0000ms, 0220ms total)
T67A8 000:290 JLINK_ReadReg(R0)  returns 0x00000001 (0000ms, 0220ms total)
T67A8 000:290 JLINK_WriteReg(R0, 0x00000000)  returns 0x00 (0000ms, 0220ms total)
T67A8 000:290 JLINK_WriteReg(R1, 0x00000200)  returns 0x00 (0000ms, 0220ms total)
T67A8 000:290 JLINK_WriteReg(R2, 0x000000FF)  returns 0x00 (0000ms, 0220ms total)
T67A8 000:290 JLINK_WriteReg(R3, 0x00000000)  returns 0x00 (0000ms, 0220ms total)
T67A8 000:290 JLINK_WriteReg(R4, 0x00000000)  returns 0x00 (0000ms, 0220ms total)
T67A8 000:290 JLINK_WriteReg(R5, 0x00000000)  returns 0x00 (0000ms, 0220ms total)
T67A8 000:290 JLINK_WriteReg(R6, 0x00000000)  returns 0x00 (0000ms, 0220ms total)
T67A8 000:291 JLINK_WriteReg(R7, 0x00000000)  returns 0x00 (0000ms, 0220ms total)
T67A8 000:291 JLINK_WriteReg(R8, 0x00000000)  returns 0x00 (0000ms, 0220ms total)
T67A8 000:291 JLINK_WriteReg(R9, 0x20000188)  returns 0x00 (0000ms, 0220ms total)
T67A8 000:291 JLINK_WriteReg(R10, 0x00000000)  returns 0x00 (0000ms, 0220ms total)
T67A8 000:291 JLINK_WriteReg(R11, 0x00000000)  returns 0x00 (0000ms, 0220ms total)
T67A8 000:291 JLINK_WriteReg(R12, 0x00000000)  returns 0x00 (0000ms, 0220ms total)
T67A8 000:291 JLINK_WriteReg(R13 (SP), 0x20001000)  returns 0x00 (0000ms, 0220ms total)
T67A8 000:291 JLINK_WriteReg(R14, 0x20000001)  returns 0x00 (0000ms, 0220ms total)
T67A8 000:291 JLINK_WriteReg(R15 (PC), 0x2000009E)  returns 0x00 (0000ms, 0220ms total)
T67A8 000:291 JLINK_WriteReg(XPSR, 0x01000000)  returns 0x00 (0000ms, 0220ms total)
T67A8 000:291 JLINK_WriteReg(MSP, 0x20001000)  returns 0x00 (0000ms, 0220ms total)
T67A8 000:291 JLINK_WriteReg(PSP, 0x20001000)  returns 0x00 (0000ms, 0220ms total)
T67A8 000:291 JLINK_WriteReg(CFBP, 0x00000000)  returns 0x00 (0000ms, 0220ms total)
T67A8 000:291 JLINK_SetBPEx(Addr = 0x20000000, Type = 0xFFFFFFF2)  returns 0x00000003 (0000ms, 0220ms total)
T67A8 000:291 JLINK_Go() -- CPU_ReadMem(4 bytes @ 0xE0001000) -- CPU_WriteMem(4 bytes @ 0xE0001000) (0002ms, 0222ms total)
T67A8 000:293 JLINK_IsHalted() -- CPU_ReadMem(2 bytes @ 0x20000000)  returns TRUE (0009ms, 0231ms total)
T67A8 000:302 JLINK_ReadReg(R15 (PC))  returns 0x20000000 (0000ms, 0222ms total)
T67A8 000:302 JLINK_ClrBPEx(BPHandle = 0x00000003)  returns 0x00 (0000ms, 0222ms total)
T67A8 000:302 JLINK_ReadReg(R0)  returns 0x00000000 (0000ms, 0222ms total)
T67A8 000:303 JLINK_WriteReg(R0, 0x00000200)  returns 0x00 (0000ms, 0222ms total)
T67A8 000:303 JLINK_WriteReg(R1, 0x00000200)  returns 0x00 (0000ms, 0222ms total)
T67A8 000:303 JLINK_WriteReg(R2, 0x000000FF)  returns 0x00 (0000ms, 0222ms total)
T67A8 000:303 JLINK_WriteReg(R3, 0x00000000)  returns 0x00 (0000ms, 0222ms total)
T67A8 000:303 JLINK_WriteReg(R4, 0x00000000)  returns 0x00 (0000ms, 0222ms total)
T67A8 000:303 JLINK_WriteReg(R5, 0x00000000)  returns 0x00 (0000ms, 0222ms total)
T67A8 000:303 JLINK_WriteReg(R6, 0x00000000)  returns 0x00 (0000ms, 0222ms total)
T67A8 000:303 JLINK_WriteReg(R7, 0x00000000)  returns 0x00 (0000ms, 0222ms total)
T67A8 000:303 JLINK_WriteReg(R8, 0x00000000)  returns 0x00 (0000ms, 0222ms total)
T67A8 000:303 JLINK_WriteReg(R9, 0x20000188)  returns 0x00 (0000ms, 0222ms total)
T67A8 000:303 JLINK_WriteReg(R10, 0x00000000)  returns 0x00 (0000ms, 0222ms total)
T67A8 000:303 JLINK_WriteReg(R11, 0x00000000)  returns 0x00 (0000ms, 0222ms total)
T67A8 000:303 JLINK_WriteReg(R12, 0x00000000)  returns 0x00 (0000ms, 0222ms total)
T67A8 000:303 JLINK_WriteReg(R13 (SP), 0x20001000)  returns 0x00 (0000ms, 0222ms total)
T67A8 000:303 JLINK_WriteReg(R14, 0x20000001)  returns 0x00 (0000ms, 0222ms total)
T67A8 000:303 JLINK_WriteReg(R15 (PC), 0x20000020)  returns 0x00 (0000ms, 0222ms total)
T67A8 000:303 JLINK_WriteReg(XPSR, 0x01000000)  returns 0x00 (0000ms, 0222ms total)
T67A8 000:303 JLINK_WriteReg(MSP, 0x20001000)  returns 0x00 (0000ms, 0222ms total)
T67A8 000:303 JLINK_WriteReg(PSP, 0x20001000)  returns 0x00 (0000ms, 0222ms total)
T67A8 000:303 JLINK_WriteReg(CFBP, 0x00000000)  returns 0x00 (0000ms, 0222ms total)
T67A8 000:303 JLINK_SetBPEx(Addr = 0x20000000, Type = 0xFFFFFFF2)  returns 0x00000004 (0000ms, 0222ms total)
T67A8 000:303 JLINK_Go() -- CPU_ReadMem(4 bytes @ 0xE0001000) -- CPU_WriteMem(4 bytes @ 0xE0001000) (0003ms, 0225ms total)
T67A8 000:306 JLINK_IsHalted() -- CPU_ReadMem(2 bytes @ 0x20000000)  returns TRUE (0004ms, 0229ms total)
T67A8 000:310 JLINK_ReadReg(R15 (PC))  returns 0x20000000 (0000ms, 0225ms total)
T67A8 000:310 JLINK_ClrBPEx(BPHandle = 0x00000004)  returns 0x00 (0000ms, 0225ms total)
T67A8 000:310 JLINK_ReadReg(R0)  returns 0x00000001 (0000ms, 0225ms total)
T67A8 000:310 JLINK_WriteReg(R0, 0x00000200)  returns 0x00 (0000ms, 0225ms total)
T67A8 000:310 JLINK_WriteReg(R1, 0x00000200)  returns 0x00 (0000ms, 0225ms total)
T67A8 000:310 JLINK_WriteReg(R2, 0x000000FF)  returns 0x00 (0000ms, 0225ms total)
T67A8 000:310 JLINK_WriteReg(R3, 0x00000000)  returns 0x00 (0000ms, 0225ms total)
T67A8 000:310 JLINK_WriteReg(R4, 0x00000000)  returns 0x00 (0000ms, 0225ms total)
T67A8 000:310 JLINK_WriteReg(R5, 0x00000000)  returns 0x00 (0000ms, 0225ms total)
T67A8 000:310 JLINK_WriteReg(R6, 0x00000000)  returns 0x00 (0000ms, 0225ms total)
T67A8 000:310 JLINK_WriteReg(R7, 0x00000000)  returns 0x00 (0000ms, 0225ms total)
T67A8 000:310 JLINK_WriteReg(R8, 0x00000000)  returns 0x00 (0000ms, 0225ms total)
T67A8 000:310 JLINK_WriteReg(R9, 0x20000188)  returns 0x00 (0000ms, 0225ms total)
T67A8 000:310 JLINK_WriteReg(R10, 0x00000000)  returns 0x00 (0000ms, 0225ms total)
T67A8 000:310 JLINK_WriteReg(R11, 0x00000000)  returns 0x00 (0000ms, 0225ms total)
T67A8 000:310 JLINK_WriteReg(R12, 0x00000000)  returns 0x00 (0000ms, 0225ms total)
T67A8 000:310 JLINK_WriteReg(R13 (SP), 0x20001000)  returns 0x00 (0000ms, 0225ms total)
T67A8 000:310 JLINK_WriteReg(R14, 0x20000001)  returns 0x00 (0000ms, 0225ms total)
T67A8 000:311 JLINK_WriteReg(R15 (PC), 0x2000009E)  returns 0x00 (0000ms, 0225ms total)
T67A8 000:311 JLINK_WriteReg(XPSR, 0x01000000)  returns 0x00 (0000ms, 0225ms total)
T67A8 000:311 JLINK_WriteReg(MSP, 0x20001000)  returns 0x00 (0000ms, 0225ms total)
T67A8 000:311 JLINK_WriteReg(PSP, 0x20001000)  returns 0x00 (0000ms, 0225ms total)
T67A8 000:311 JLINK_WriteReg(CFBP, 0x00000000)  returns 0x00 (0000ms, 0225ms total)
T67A8 000:311 JLINK_SetBPEx(Addr = 0x20000000, Type = 0xFFFFFFF2)  returns 0x00000005 (0000ms, 0225ms total)
T67A8 000:311 JLINK_Go() -- CPU_ReadMem(4 bytes @ 0xE0001000) -- CPU_WriteMem(4 bytes @ 0xE0001000) (0002ms, 0227ms total)
T67A8 000:313 JLINK_IsHalted() -- CPU_ReadMem(2 bytes @ 0x20000000)  returns TRUE (0009ms, 0236ms total)
T67A8 000:322 JLINK_ReadReg(R15 (PC))  returns 0x20000000 (0000ms, 0227ms total)
T67A8 000:322 JLINK_ClrBPEx(BPHandle = 0x00000005)  returns 0x00 (0000ms, 0227ms total)
T67A8 000:322 JLINK_ReadReg(R0)  returns 0x00000000 (0000ms, 0227ms total)
T67A8 000:322 JLINK_WriteReg(R0, 0x00000400)  returns 0x00 (0000ms, 0227ms total)
T67A8 000:322 JLINK_WriteReg(R1, 0x00000200)  returns 0x00 (0000ms, 0227ms total)
T67A8 000:322 JLINK_WriteReg(R2, 0x000000FF)  returns 0x00 (0000ms, 0227ms total)
T67A8 000:323 JLINK_WriteReg(R3, 0x00000000)  returns 0x00 (0000ms, 0227ms total)
T67A8 000:323 JLINK_WriteReg(R4, 0x00000000)  returns 0x00 (0000ms, 0227ms total)
T67A8 000:323 JLINK_WriteReg(R5, 0x00000000)  returns 0x00 (0000ms, 0227ms total)
T67A8 000:323 JLINK_WriteReg(R6, 0x00000000)  returns 0x00 (0000ms, 0227ms total)
T67A8 000:323 JLINK_WriteReg(R7, 0x00000000)  returns 0x00 (0000ms, 0227ms total)
T67A8 000:323 JLINK_WriteReg(R8, 0x00000000)  returns 0x00 (0000ms, 0227ms total)
T67A8 000:323 JLINK_WriteReg(R9, 0x20000188)  returns 0x00 (0000ms, 0227ms total)
T67A8 000:323 JLINK_WriteReg(R10, 0x00000000)  returns 0x00 (0000ms, 0227ms total)
T67A8 000:323 JLINK_WriteReg(R11, 0x00000000)  returns 0x00 (0000ms, 0227ms total)
T67A8 000:323 JLINK_WriteReg(R12, 0x00000000)  returns 0x00 (0000ms, 0227ms total)
T67A8 000:323 JLINK_WriteReg(R13 (SP), 0x20001000)  returns 0x00 (0000ms, 0227ms total)
T67A8 000:323 JLINK_WriteReg(R14, 0x20000001)  returns 0x00 (0000ms, 0227ms total)
T67A8 000:323 JLINK_WriteReg(R15 (PC), 0x20000020)  returns 0x00 (0000ms, 0227ms total)
T67A8 000:323 JLINK_WriteReg(XPSR, 0x01000000)  returns 0x00 (0000ms, 0227ms total)
T67A8 000:323 JLINK_WriteReg(MSP, 0x20001000)  returns 0x00 (0000ms, 0227ms total)
T67A8 000:323 JLINK_WriteReg(PSP, 0x20001000)  returns 0x00 (0000ms, 0227ms total)
T67A8 000:323 JLINK_WriteReg(CFBP, 0x00000000)  returns 0x00 (0000ms, 0227ms total)
T67A8 000:323 JLINK_SetBPEx(Addr = 0x20000000, Type = 0xFFFFFFF2)  returns 0x00000006 (0000ms, 0227ms total)
T67A8 000:323 JLINK_Go() -- CPU_ReadMem(4 bytes @ 0xE0001000) -- CPU_WriteMem(4 bytes @ 0xE0001000) (0003ms, 0230ms total)
T67A8 000:326 JLINK_IsHalted() -- CPU_ReadMem(2 bytes @ 0x20000000)  returns TRUE (0004ms, 0234ms total)
T67A8 000:330 JLINK_ReadReg(R15 (PC))  returns 0x20000000 (0000ms, 0230ms total)
T67A8 000:330 JLINK_ClrBPEx(BPHandle = 0x00000006)  returns 0x00 (0000ms, 0230ms total)
T67A8 000:330 JLINK_ReadReg(R0)  returns 0x00000001 (0000ms, 0230ms total)
T67A8 000:330 JLINK_WriteReg(R0, 0x00000400)  returns 0x00 (0000ms, 0230ms total)
T67A8 000:330 JLINK_WriteReg(R1, 0x00000200)  returns 0x00 (0000ms, 0230ms total)
T67A8 000:330 JLINK_WriteReg(R2, 0x000000FF)  returns 0x00 (0000ms, 0230ms total)
T67A8 000:330 JLINK_WriteReg(R3, 0x00000000)  returns 0x00 (0000ms, 0230ms total)
T67A8 000:330 JLINK_WriteReg(R4, 0x00000000)  returns 0x00 (0000ms, 0230ms total)
T67A8 000:330 JLINK_WriteReg(R5, 0x00000000)  returns 0x00 (0000ms, 0230ms total)
T67A8 000:330 JLINK_WriteReg(R6, 0x00000000)  returns 0x00 (0000ms, 0230ms total)
T67A8 000:330 JLINK_WriteReg(R7, 0x00000000)  returns 0x00 (0000ms, 0230ms total)
T67A8 000:330 JLINK_WriteReg(R8, 0x00000000)  returns 0x00 (0000ms, 0230ms total)
T67A8 000:330 JLINK_WriteReg(R9, 0x20000188)  returns 0x00 (0000ms, 0230ms total)
T67A8 000:330 JLINK_WriteReg(R10, 0x00000000)  returns 0x00 (0000ms, 0230ms total)
T67A8 000:330 JLINK_WriteReg(R11, 0x00000000)  returns 0x00 (0000ms, 0230ms total)
T67A8 000:330 JLINK_WriteReg(R12, 0x00000000)  returns 0x00 (0000ms, 0230ms total)
T67A8 000:330 JLINK_WriteReg(R13 (SP), 0x20001000)  returns 0x00 (0000ms, 0230ms total)
T67A8 000:330 JLINK_WriteReg(R14, 0x20000001)  returns 0x00 (0000ms, 0230ms total)
T67A8 000:330 JLINK_WriteReg(R15 (PC), 0x2000009E)  returns 0x00 (0000ms, 0230ms total)
T67A8 000:330 JLINK_WriteReg(XPSR, 0x01000000)  returns 0x00 (0000ms, 0230ms total)
T67A8 000:330 JLINK_WriteReg(MSP, 0x20001000)  returns 0x00 (0000ms, 0230ms total)
T67A8 000:330 JLINK_WriteReg(PSP, 0x20001000)  returns 0x00 (0000ms, 0230ms total)
T67A8 000:330 JLINK_WriteReg(CFBP, 0x00000000)  returns 0x00 (0000ms, 0230ms total)
T67A8 000:330 JLINK_SetBPEx(Addr = 0x20000000, Type = 0xFFFFFFF2)  returns 0x00000007 (0001ms, 0231ms total)
T67A8 000:331 JLINK_Go() -- CPU_ReadMem(4 bytes @ 0xE0001000) -- CPU_WriteMem(4 bytes @ 0xE0001000) (0002ms, 0233ms total)
T67A8 000:333 JLINK_IsHalted() -- CPU_ReadMem(2 bytes @ 0x20000000)  returns TRUE (0009ms, 0242ms total)
T67A8 000:342 JLINK_ReadReg(R15 (PC))  returns 0x20000000 (0000ms, 0233ms total)
T67A8 000:342 JLINK_ClrBPEx(BPHandle = 0x00000007)  returns 0x00 (0000ms, 0233ms total)
T67A8 000:342 JLINK_ReadReg(R0)  returns 0x00000000 (0000ms, 0233ms total)
T67A8 000:342 JLINK_WriteReg(R0, 0x00000600)  returns 0x00 (0000ms, 0233ms total)
T67A8 000:342 JLINK_WriteReg(R1, 0x00000200)  returns 0x00 (0000ms, 0233ms total)
T67A8 000:342 JLINK_WriteReg(R2, 0x000000FF)  returns 0x00 (0000ms, 0233ms total)
T67A8 000:342 JLINK_WriteReg(R3, 0x00000000)  returns 0x00 (0000ms, 0233ms total)
T67A8 000:342 JLINK_WriteReg(R4, 0x00000000)  returns 0x00 (0000ms, 0233ms total)
T67A8 000:342 JLINK_WriteReg(R5, 0x00000000)  returns 0x00 (0000ms, 0233ms total)
T67A8 000:342 JLINK_WriteReg(R6, 0x00000000)  returns 0x00 (0000ms, 0233ms total)
T67A8 000:342 JLINK_WriteReg(R7, 0x00000000)  returns 0x00 (0000ms, 0233ms total)
T67A8 000:342 JLINK_WriteReg(R8, 0x00000000)  returns 0x00 (0000ms, 0233ms total)
T67A8 000:342 JLINK_WriteReg(R9, 0x20000188)  returns 0x00 (0000ms, 0233ms total)
T67A8 000:342 JLINK_WriteReg(R10, 0x00000000)  returns 0x00 (0000ms, 0233ms total)
T67A8 000:342 JLINK_WriteReg(R11, 0x00000000)  returns 0x00 (0000ms, 0233ms total)
T67A8 000:342 JLINK_WriteReg(R12, 0x00000000)  returns 0x00 (0000ms, 0233ms total)
T67A8 000:342 JLINK_WriteReg(R13 (SP), 0x20001000)  returns 0x00 (0000ms, 0233ms total)
T67A8 000:342 JLINK_WriteReg(R14, 0x20000001)  returns 0x00 (0001ms, 0234ms total)
T67A8 000:343 JLINK_WriteReg(R15 (PC), 0x20000020)  returns 0x00 (0000ms, 0234ms total)
T67A8 000:343 JLINK_WriteReg(XPSR, 0x01000000)  returns 0x00 (0000ms, 0234ms total)
T67A8 000:343 JLINK_WriteReg(MSP, 0x20001000)  returns 0x00 (0000ms, 0234ms total)
T67A8 000:343 JLINK_WriteReg(PSP, 0x20001000)  returns 0x00 (0000ms, 0234ms total)
T67A8 000:343 JLINK_WriteReg(CFBP, 0x00000000)  returns 0x00 (0000ms, 0234ms total)
T67A8 000:343 JLINK_SetBPEx(Addr = 0x20000000, Type = 0xFFFFFFF2)  returns 0x00000008 (0000ms, 0234ms total)
T67A8 000:343 JLINK_Go() -- CPU_ReadMem(4 bytes @ 0xE0001000) -- CPU_WriteMem(4 bytes @ 0xE0001000) (0003ms, 0237ms total)
T67A8 000:346 JLINK_IsHalted() -- CPU_ReadMem(2 bytes @ 0x20000000)  returns TRUE (0004ms, 0241ms total)
T67A8 000:350 JLINK_ReadReg(R15 (PC))  returns 0x20000000 (0000ms, 0237ms total)
T67A8 000:350 JLINK_ClrBPEx(BPHandle = 0x00000008)  returns 0x00 (0000ms, 0237ms total)
T67A8 000:350 JLINK_ReadReg(R0)  returns 0x00000001 (0000ms, 0237ms total)
T67A8 000:350 JLINK_WriteReg(R0, 0x00000600)  returns 0x00 (0000ms, 0237ms total)
T67A8 000:350 JLINK_WriteReg(R1, 0x00000200)  returns 0x00 (0000ms, 0237ms total)
T67A8 000:350 JLINK_WriteReg(R2, 0x000000FF)  returns 0x00 (0000ms, 0237ms total)
T67A8 000:350 JLINK_WriteReg(R3, 0x00000000)  returns 0x00 (0000ms, 0237ms total)
T67A8 000:350 JLINK_WriteReg(R4, 0x00000000)  returns 0x00 (0000ms, 0237ms total)
T67A8 000:350 JLINK_WriteReg(R5, 0x00000000)  returns 0x00 (0000ms, 0237ms total)
T67A8 000:350 JLINK_WriteReg(R6, 0x00000000)  returns 0x00 (0000ms, 0237ms total)
T67A8 000:350 JLINK_WriteReg(R7, 0x00000000)  returns 0x00 (0000ms, 0237ms total)
T67A8 000:350 JLINK_WriteReg(R8, 0x00000000)  returns 0x00 (0000ms, 0237ms total)
T67A8 000:350 JLINK_WriteReg(R9, 0x20000188)  returns 0x00 (0000ms, 0237ms total)
T67A8 000:350 JLINK_WriteReg(R10, 0x00000000)  returns 0x00 (0000ms, 0237ms total)
T67A8 000:350 JLINK_WriteReg(R11, 0x00000000)  returns 0x00 (0000ms, 0237ms total)
T67A8 000:350 JLINK_WriteReg(R12, 0x00000000)  returns 0x00 (0000ms, 0237ms total)
T67A8 000:350 JLINK_WriteReg(R13 (SP), 0x20001000)  returns 0x00 (0000ms, 0237ms total)
T67A8 000:350 JLINK_WriteReg(R14, 0x20000001)  returns 0x00 (0000ms, 0237ms total)
T67A8 000:350 JLINK_WriteReg(R15 (PC), 0x2000009E)  returns 0x00 (0000ms, 0237ms total)
T67A8 000:350 JLINK_WriteReg(XPSR, 0x01000000)  returns 0x00 (0000ms, 0237ms total)
T67A8 000:350 JLINK_WriteReg(MSP, 0x20001000)  returns 0x00 (0000ms, 0237ms total)
T67A8 000:350 JLINK_WriteReg(PSP, 0x20001000)  returns 0x00 (0000ms, 0237ms total)
T67A8 000:350 JLINK_WriteReg(CFBP, 0x00000000)  returns 0x00 (0000ms, 0237ms total)
T67A8 000:350 JLINK_SetBPEx(Addr = 0x20000000, Type = 0xFFFFFFF2)  returns 0x00000009 (0001ms, 0238ms total)
T67A8 000:351 JLINK_Go() -- CPU_ReadMem(4 bytes @ 0xE0001000) -- CPU_WriteMem(4 bytes @ 0xE0001000) (0002ms, 0240ms total)
T67A8 000:353 JLINK_IsHalted() -- CPU_ReadMem(2 bytes @ 0x20000000)  returns TRUE (0009ms, 0249ms total)
T67A8 000:362 JLINK_ReadReg(R15 (PC))  returns 0x20000000 (0000ms, 0240ms total)
T67A8 000:362 JLINK_ClrBPEx(BPHandle = 0x00000009)  returns 0x00 (0000ms, 0240ms total)
T67A8 000:362 JLINK_ReadReg(R0)  returns 0x00000000 (0000ms, 0240ms total)
T67A8 000:362 JLINK_WriteReg(R0, 0x00000800)  returns 0x00 (0000ms, 0240ms total)
T67A8 000:362 JLINK_WriteReg(R1, 0x00000200)  returns 0x00 (0000ms, 0240ms total)
T67A8 000:362 JLINK_WriteReg(R2, 0x000000FF)  returns 0x00 (0000ms, 0240ms total)
T67A8 000:362 JLINK_WriteReg(R3, 0x00000000)  returns 0x00 (0000ms, 0240ms total)
T67A8 000:362 JLINK_WriteReg(R4, 0x00000000)  returns 0x00 (0000ms, 0240ms total)
T67A8 000:362 JLINK_WriteReg(R5, 0x00000000)  returns 0x00 (0000ms, 0240ms total)
T67A8 000:362 JLINK_WriteReg(R6, 0x00000000)  returns 0x00 (0000ms, 0240ms total)
T67A8 000:362 JLINK_WriteReg(R7, 0x00000000)  returns 0x00 (0000ms, 0240ms total)
T67A8 000:363 JLINK_WriteReg(R8, 0x00000000)  returns 0x00 (0000ms, 0241ms total)
T67A8 000:363 JLINK_WriteReg(R9, 0x20000188)  returns 0x00 (0000ms, 0241ms total)
T67A8 000:363 JLINK_WriteReg(R10, 0x00000000)  returns 0x00 (0000ms, 0241ms total)
T67A8 000:363 JLINK_WriteReg(R11, 0x00000000)  returns 0x00 (0000ms, 0241ms total)
T67A8 000:363 JLINK_WriteReg(R12, 0x00000000)  returns 0x00 (0000ms, 0241ms total)
T67A8 000:363 JLINK_WriteReg(R13 (SP), 0x20001000)  returns 0x00 (0000ms, 0241ms total)
T67A8 000:363 JLINK_WriteReg(R14, 0x20000001)  returns 0x00 (0000ms, 0241ms total)
T67A8 000:363 JLINK_WriteReg(R15 (PC), 0x20000020)  returns 0x00 (0000ms, 0241ms total)
T67A8 000:363 JLINK_WriteReg(XPSR, 0x01000000)  returns 0x00 (0000ms, 0241ms total)
T67A8 000:363 JLINK_WriteReg(MSP, 0x20001000)  returns 0x00 (0000ms, 0241ms total)
T67A8 000:363 JLINK_WriteReg(PSP, 0x20001000)  returns 0x00 (0000ms, 0241ms total)
T67A8 000:363 JLINK_WriteReg(CFBP, 0x00000000)  returns 0x00 (0000ms, 0241ms total)
T67A8 000:363 JLINK_SetBPEx(Addr = 0x20000000, Type = 0xFFFFFFF2)  returns 0x0000000A (0000ms, 0241ms total)
T67A8 000:363 JLINK_Go() -- CPU_ReadMem(4 bytes @ 0xE0001000) -- CPU_WriteMem(4 bytes @ 0xE0001000) (0002ms, 0243ms total)
T67A8 000:365 JLINK_IsHalted() -- CPU_ReadMem(2 bytes @ 0x20000000)  returns TRUE (0005ms, 0248ms total)
T67A8 000:370 JLINK_ReadReg(R15 (PC))  returns 0x20000000 (0000ms, 0243ms total)
T67A8 000:370 JLINK_ClrBPEx(BPHandle = 0x0000000A)  returns 0x00 (0000ms, 0243ms total)
T67A8 000:370 JLINK_ReadReg(R0)  returns 0x00000001 (0000ms, 0243ms total)
T67A8 000:370 JLINK_WriteReg(R0, 0x00000800)  returns 0x00 (0000ms, 0243ms total)
T67A8 000:370 JLINK_WriteReg(R1, 0x00000200)  returns 0x00 (0000ms, 0243ms total)
T67A8 000:370 JLINK_WriteReg(R2, 0x000000FF)  returns 0x00 (0000ms, 0243ms total)
T67A8 000:370 JLINK_WriteReg(R3, 0x00000000)  returns 0x00 (0000ms, 0243ms total)
T67A8 000:370 JLINK_WriteReg(R4, 0x00000000)  returns 0x00 (0000ms, 0243ms total)
T67A8 000:370 JLINK_WriteReg(R5, 0x00000000)  returns 0x00 (0000ms, 0243ms total)
T67A8 000:370 JLINK_WriteReg(R6, 0x00000000)  returns 0x00 (0000ms, 0243ms total)
T67A8 000:370 JLINK_WriteReg(R7, 0x00000000)  returns 0x00 (0000ms, 0243ms total)
T67A8 000:370 JLINK_WriteReg(R8, 0x00000000)  returns 0x00 (0000ms, 0243ms total)
T67A8 000:370 JLINK_WriteReg(R9, 0x20000188)  returns 0x00 (0000ms, 0243ms total)
T67A8 000:370 JLINK_WriteReg(R10, 0x00000000)  returns 0x00 (0000ms, 0243ms total)
T67A8 000:370 JLINK_WriteReg(R11, 0x00000000)  returns 0x00 (0000ms, 0243ms total)
T67A8 000:370 JLINK_WriteReg(R12, 0x00000000)  returns 0x00 (0000ms, 0243ms total)
T67A8 000:370 JLINK_WriteReg(R13 (SP), 0x20001000)  returns 0x00 (0000ms, 0243ms total)
T67A8 000:370 JLINK_WriteReg(R14, 0x20000001)  returns 0x00 (0000ms, 0243ms total)
T67A8 000:370 JLINK_WriteReg(R15 (PC), 0x2000009E)  returns 0x00 (0000ms, 0243ms total)
T67A8 000:370 JLINK_WriteReg(XPSR, 0x01000000)  returns 0x00 (0000ms, 0243ms total)
T67A8 000:370 JLINK_WriteReg(MSP, 0x20001000)  returns 0x00 (0000ms, 0243ms total)
T67A8 000:370 JLINK_WriteReg(PSP, 0x20001000)  returns 0x00 (0000ms, 0243ms total)
T67A8 000:370 JLINK_WriteReg(CFBP, 0x00000000)  returns 0x00 (0000ms, 0243ms total)
T67A8 000:370 JLINK_SetBPEx(Addr = 0x20000000, Type = 0xFFFFFFF2)  returns 0x0000000B (0000ms, 0243ms total)
T67A8 000:370 JLINK_Go() -- CPU_ReadMem(4 bytes @ 0xE0001000) -- CPU_WriteMem(4 bytes @ 0xE0001000) (0002ms, 0245ms total)
T67A8 000:372 JLINK_IsHalted() -- CPU_ReadMem(2 bytes @ 0x20000000)  returns TRUE (0009ms, 0254ms total)
T67A8 000:381 JLINK_ReadReg(R15 (PC))  returns 0x20000000 (0000ms, 0245ms total)
T67A8 000:381 JLINK_ClrBPEx(BPHandle = 0x0000000B)  returns 0x00 (0000ms, 0245ms total)
T67A8 000:381 JLINK_ReadReg(R0)  returns 0x00000000 (0000ms, 0245ms total)
T67A8 000:381 JLINK_WriteReg(R0, 0x00000A00)  returns 0x00 (0000ms, 0245ms total)
T67A8 000:381 JLINK_WriteReg(R1, 0x00000200)  returns 0x00 (0000ms, 0245ms total)
T67A8 000:381 JLINK_WriteReg(R2, 0x000000FF)  returns 0x00 (0000ms, 0245ms total)
T67A8 000:381 JLINK_WriteReg(R3, 0x00000000)  returns 0x00 (0000ms, 0245ms total)
T67A8 000:381 JLINK_WriteReg(R4, 0x00000000)  returns 0x00 (0001ms, 0246ms total)
T67A8 000:382 JLINK_WriteReg(R5, 0x00000000)  returns 0x00 (0000ms, 0246ms total)
T67A8 000:382 JLINK_WriteReg(R6, 0x00000000)  returns 0x00 (0000ms, 0246ms total)
T67A8 000:382 JLINK_WriteReg(R7, 0x00000000)  returns 0x00 (0000ms, 0246ms total)
T67A8 000:382 JLINK_WriteReg(R8, 0x00000000)  returns 0x00 (0000ms, 0246ms total)
T67A8 000:382 JLINK_WriteReg(R9, 0x20000188)  returns 0x00 (0000ms, 0246ms total)
T67A8 000:382 JLINK_WriteReg(R10, 0x00000000)  returns 0x00 (0000ms, 0246ms total)
T67A8 000:382 JLINK_WriteReg(R11, 0x00000000)  returns 0x00 (0000ms, 0246ms total)
T67A8 000:382 JLINK_WriteReg(R12, 0x00000000)  returns 0x00 (0000ms, 0246ms total)
T67A8 000:382 JLINK_WriteReg(R13 (SP), 0x20001000)  returns 0x00 (0000ms, 0246ms total)
T67A8 000:382 JLINK_WriteReg(R14, 0x20000001)  returns 0x00 (0000ms, 0246ms total)
T67A8 000:382 JLINK_WriteReg(R15 (PC), 0x20000020)  returns 0x00 (0000ms, 0246ms total)
T67A8 000:382 JLINK_WriteReg(XPSR, 0x01000000)  returns 0x00 (0000ms, 0246ms total)
T67A8 000:382 JLINK_WriteReg(MSP, 0x20001000)  returns 0x00 (0000ms, 0246ms total)
T67A8 000:382 JLINK_WriteReg(PSP, 0x20001000)  returns 0x00 (0000ms, 0246ms total)
T67A8 000:382 JLINK_WriteReg(CFBP, 0x00000000)  returns 0x00 (0000ms, 0246ms total)
T67A8 000:382 JLINK_SetBPEx(Addr = 0x20000000, Type = 0xFFFFFFF2)  returns 0x0000000C (0000ms, 0246ms total)
T67A8 000:382 JLINK_Go() -- CPU_ReadMem(4 bytes @ 0xE0001000) -- CPU_WriteMem(4 bytes @ 0xE0001000) (0003ms, 0249ms total)
T67A8 000:385 JLINK_IsHalted() -- CPU_ReadMem(2 bytes @ 0x20000000)  returns TRUE (0005ms, 0254ms total)
T67A8 000:390 JLINK_ReadReg(R15 (PC))  returns 0x20000000 (0000ms, 0249ms total)
T67A8 000:390 JLINK_ClrBPEx(BPHandle = 0x0000000C)  returns 0x00 (0000ms, 0249ms total)
T67A8 000:390 JLINK_ReadReg(R0)  returns 0x00000001 (0000ms, 0249ms total)
T67A8 000:390 JLINK_WriteReg(R0, 0x00000A00)  returns 0x00 (0000ms, 0249ms total)
T67A8 000:390 JLINK_WriteReg(R1, 0x00000200)  returns 0x00 (0000ms, 0249ms total)
T67A8 000:390 JLINK_WriteReg(R2, 0x000000FF)  returns 0x00 (0000ms, 0249ms total)
T67A8 000:390 JLINK_WriteReg(R3, 0x00000000)  returns 0x00 (0000ms, 0249ms total)
T67A8 000:390 JLINK_WriteReg(R4, 0x00000000)  returns 0x00 (0000ms, 0249ms total)
T67A8 000:390 JLINK_WriteReg(R5, 0x00000000)  returns 0x00 (0000ms, 0249ms total)
T67A8 000:390 JLINK_WriteReg(R6, 0x00000000)  returns 0x00 (0000ms, 0249ms total)
T67A8 000:390 JLINK_WriteReg(R7, 0x00000000)  returns 0x00 (0000ms, 0249ms total)
T67A8 000:390 JLINK_WriteReg(R8, 0x00000000)  returns 0x00 (0000ms, 0249ms total)
T67A8 000:390 JLINK_WriteReg(R9, 0x20000188)  returns 0x00 (0000ms, 0249ms total)
T67A8 000:390 JLINK_WriteReg(R10, 0x00000000)  returns 0x00 (0000ms, 0249ms total)
T67A8 000:390 JLINK_WriteReg(R11, 0x00000000)  returns 0x00 (0000ms, 0249ms total)
T67A8 000:390 JLINK_WriteReg(R12, 0x00000000)  returns 0x00 (0000ms, 0249ms total)
T67A8 000:390 JLINK_WriteReg(R13 (SP), 0x20001000)  returns 0x00 (0000ms, 0249ms total)
T67A8 000:390 JLINK_WriteReg(R14, 0x20000001)  returns 0x00 (0000ms, 0249ms total)
T67A8 000:390 JLINK_WriteReg(R15 (PC), 0x2000009E)  returns 0x00 (0000ms, 0249ms total)
T67A8 000:390 JLINK_WriteReg(XPSR, 0x01000000)  returns 0x00 (0000ms, 0249ms total)
T67A8 000:390 JLINK_WriteReg(MSP, 0x20001000)  returns 0x00 (0000ms, 0249ms total)
T67A8 000:390 JLINK_WriteReg(PSP, 0x20001000)  returns 0x00 (0000ms, 0249ms total)
T67A8 000:390 JLINK_WriteReg(CFBP, 0x00000000)  returns 0x00 (0000ms, 0249ms total)
T67A8 000:390 JLINK_SetBPEx(Addr = 0x20000000, Type = 0xFFFFFFF2)  returns 0x0000000D (0000ms, 0249ms total)
T67A8 000:390 JLINK_Go() -- CPU_ReadMem(4 bytes @ 0xE0001000) -- CPU_WriteMem(4 bytes @ 0xE0001000) (0003ms, 0252ms total)
T67A8 000:393 JLINK_IsHalted() -- CPU_ReadMem(2 bytes @ 0x20000000)  returns TRUE (0009ms, 0261ms total)
T67A8 000:402 JLINK_ReadReg(R15 (PC))  returns 0x20000000 (0000ms, 0252ms total)
T67A8 000:402 JLINK_ClrBPEx(BPHandle = 0x0000000D)  returns 0x00 (0000ms, 0252ms total)
T67A8 000:402 JLINK_ReadReg(R0)  returns 0x00000000 (0000ms, 0252ms total)
T67A8 000:402 JLINK_WriteReg(R0, 0x00000C00)  returns 0x00 (0000ms, 0252ms total)
T67A8 000:402 JLINK_WriteReg(R1, 0x00000200)  returns 0x00 (0000ms, 0252ms total)
T67A8 000:402 JLINK_WriteReg(R2, 0x000000FF)  returns 0x00 (0000ms, 0252ms total)
T67A8 000:402 JLINK_WriteReg(R3, 0x00000000)  returns 0x00 (0000ms, 0252ms total)
T67A8 000:402 JLINK_WriteReg(R4, 0x00000000)  returns 0x00 (0000ms, 0252ms total)
T67A8 000:402 JLINK_WriteReg(R5, 0x00000000)  returns 0x00 (0000ms, 0252ms total)
T67A8 000:402 JLINK_WriteReg(R6, 0x00000000)  returns 0x00 (0000ms, 0252ms total)
T67A8 000:402 JLINK_WriteReg(R7, 0x00000000)  returns 0x00 (0000ms, 0252ms total)
T67A8 000:402 JLINK_WriteReg(R8, 0x00000000)  returns 0x00 (0000ms, 0252ms total)
T67A8 000:402 JLINK_WriteReg(R9, 0x20000188)  returns 0x00 (0000ms, 0252ms total)
T67A8 000:402 JLINK_WriteReg(R10, 0x00000000)  returns 0x00 (0000ms, 0252ms total)
T67A8 000:402 JLINK_WriteReg(R11, 0x00000000)  returns 0x00 (0000ms, 0252ms total)
T67A8 000:402 JLINK_WriteReg(R12, 0x00000000)  returns 0x00 (0000ms, 0252ms total)
T67A8 000:402 JLINK_WriteReg(R13 (SP), 0x20001000)  returns 0x00 (0000ms, 0252ms total)
T67A8 000:402 JLINK_WriteReg(R14, 0x20000001)  returns 0x00 (0000ms, 0252ms total)
T67A8 000:402 JLINK_WriteReg(R15 (PC), 0x20000020)  returns 0x00 (0000ms, 0252ms total)
T67A8 000:402 JLINK_WriteReg(XPSR, 0x01000000)  returns 0x00 (0000ms, 0252ms total)
T67A8 000:402 JLINK_WriteReg(MSP, 0x20001000)  returns 0x00 (0000ms, 0252ms total)
T67A8 000:402 JLINK_WriteReg(PSP, 0x20001000)  returns 0x00 (0000ms, 0252ms total)
T67A8 000:402 JLINK_WriteReg(CFBP, 0x00000000)  returns 0x00 (0000ms, 0252ms total)
T67A8 000:402 JLINK_SetBPEx(Addr = 0x20000000, Type = 0xFFFFFFF2)  returns 0x0000000E (0000ms, 0252ms total)
T67A8 000:402 JLINK_Go() -- CPU_ReadMem(4 bytes @ 0xE0001000) -- CPU_WriteMem(4 bytes @ 0xE0001000) (0003ms, 0255ms total)
T67A8 000:405 JLINK_IsHalted() -- CPU_ReadMem(2 bytes @ 0x20000000)  returns TRUE (0004ms, 0259ms total)
T67A8 000:409 JLINK_ReadReg(R15 (PC))  returns 0x20000000 (0000ms, 0255ms total)
T67A8 000:409 JLINK_ClrBPEx(BPHandle = 0x0000000E)  returns 0x00 (0000ms, 0255ms total)
T67A8 000:409 JLINK_ReadReg(R0)  returns 0x00000001 (0000ms, 0255ms total)
T67A8 000:409 JLINK_WriteReg(R0, 0x00000C00)  returns 0x00 (0000ms, 0255ms total)
T67A8 000:409 JLINK_WriteReg(R1, 0x00000200)  returns 0x00 (0000ms, 0255ms total)
T67A8 000:409 JLINK_WriteReg(R2, 0x000000FF)  returns 0x00 (0000ms, 0255ms total)
T67A8 000:410 JLINK_WriteReg(R3, 0x00000000)  returns 0x00 (0000ms, 0255ms total)
T67A8 000:410 JLINK_WriteReg(R4, 0x00000000)  returns 0x00 (0000ms, 0255ms total)
T67A8 000:410 JLINK_WriteReg(R5, 0x00000000)  returns 0x00 (0000ms, 0255ms total)
T67A8 000:410 JLINK_WriteReg(R6, 0x00000000)  returns 0x00 (0000ms, 0255ms total)
T67A8 000:410 JLINK_WriteReg(R7, 0x00000000)  returns 0x00 (0000ms, 0255ms total)
T67A8 000:410 JLINK_WriteReg(R8, 0x00000000)  returns 0x00 (0000ms, 0255ms total)
T67A8 000:410 JLINK_WriteReg(R9, 0x20000188)  returns 0x00 (0000ms, 0255ms total)
T67A8 000:410 JLINK_WriteReg(R10, 0x00000000)  returns 0x00 (0000ms, 0255ms total)
T67A8 000:410 JLINK_WriteReg(R11, 0x00000000)  returns 0x00 (0000ms, 0255ms total)
T67A8 000:410 JLINK_WriteReg(R12, 0x00000000)  returns 0x00 (0000ms, 0255ms total)
T67A8 000:410 JLINK_WriteReg(R13 (SP), 0x20001000)  returns 0x00 (0000ms, 0255ms total)
T67A8 000:410 JLINK_WriteReg(R14, 0x20000001)  returns 0x00 (0000ms, 0255ms total)
T67A8 000:410 JLINK_WriteReg(R15 (PC), 0x2000009E)  returns 0x00 (0000ms, 0255ms total)
T67A8 000:410 JLINK_WriteReg(XPSR, 0x01000000)  returns 0x00 (0000ms, 0255ms total)
T67A8 000:410 JLINK_WriteReg(MSP, 0x20001000)  returns 0x00 (0000ms, 0255ms total)
T67A8 000:410 JLINK_WriteReg(PSP, 0x20001000)  returns 0x00 (0000ms, 0255ms total)
T67A8 000:410 JLINK_WriteReg(CFBP, 0x00000000)  returns 0x00 (0000ms, 0255ms total)
T67A8 000:410 JLINK_SetBPEx(Addr = 0x20000000, Type = 0xFFFFFFF2)  returns 0x0000000F (0000ms, 0255ms total)
T67A8 000:410 JLINK_Go() -- CPU_ReadMem(4 bytes @ 0xE0001000) -- CPU_WriteMem(4 bytes @ 0xE0001000) (0002ms, 0257ms total)
T67A8 000:412 JLINK_IsHalted() -- CPU_ReadMem(2 bytes @ 0x20000000)  returns TRUE (0009ms, 0266ms total)
T67A8 000:421 JLINK_ReadReg(R15 (PC))  returns 0x20000000 (0000ms, 0257ms total)
T67A8 000:421 JLINK_ClrBPEx(BPHandle = 0x0000000F)  returns 0x00 (0000ms, 0257ms total)
T67A8 000:421 JLINK_ReadReg(R0)  returns 0x00000000 (0000ms, 0257ms total)
T67A8 000:421 JLINK_WriteReg(R0, 0x00000E00)  returns 0x00 (0000ms, 0257ms total)
T67A8 000:421 JLINK_WriteReg(R1, 0x00000200)  returns 0x00 (0000ms, 0257ms total)
T67A8 000:421 JLINK_WriteReg(R2, 0x000000FF)  returns 0x00 (0000ms, 0257ms total)
T67A8 000:421 JLINK_WriteReg(R3, 0x00000000)  returns 0x00 (0000ms, 0257ms total)
T67A8 000:421 JLINK_WriteReg(R4, 0x00000000)  returns 0x00 (0000ms, 0257ms total)
T67A8 000:421 JLINK_WriteReg(R5, 0x00000000)  returns 0x00 (0000ms, 0257ms total)
T67A8 000:421 JLINK_WriteReg(R6, 0x00000000)  returns 0x00 (0000ms, 0257ms total)
T67A8 000:421 JLINK_WriteReg(R7, 0x00000000)  returns 0x00 (0000ms, 0257ms total)
T67A8 000:421 JLINK_WriteReg(R8, 0x00000000)  returns 0x00 (0000ms, 0257ms total)
T67A8 000:422 JLINK_WriteReg(R9, 0x20000188)  returns 0x00 (0000ms, 0257ms total)
T67A8 000:422 JLINK_WriteReg(R10, 0x00000000)  returns 0x00 (0000ms, 0257ms total)
T67A8 000:422 JLINK_WriteReg(R11, 0x00000000)  returns 0x00 (0000ms, 0257ms total)
T67A8 000:422 JLINK_WriteReg(R12, 0x00000000)  returns 0x00 (0000ms, 0257ms total)
T67A8 000:422 JLINK_WriteReg(R13 (SP), 0x20001000)  returns 0x00 (0000ms, 0257ms total)
T67A8 000:422 JLINK_WriteReg(R14, 0x20000001)  returns 0x00 (0000ms, 0257ms total)
T67A8 000:422 JLINK_WriteReg(R15 (PC), 0x20000020)  returns 0x00 (0000ms, 0257ms total)
T67A8 000:422 JLINK_WriteReg(XPSR, 0x01000000)  returns 0x00 (0000ms, 0257ms total)
T67A8 000:422 JLINK_WriteReg(MSP, 0x20001000)  returns 0x00 (0000ms, 0257ms total)
T67A8 000:422 JLINK_WriteReg(PSP, 0x20001000)  returns 0x00 (0000ms, 0257ms total)
T67A8 000:422 JLINK_WriteReg(CFBP, 0x00000000)  returns 0x00 (0000ms, 0257ms total)
T67A8 000:422 JLINK_SetBPEx(Addr = 0x20000000, Type = 0xFFFFFFF2)  returns 0x00000010 (0000ms, 0257ms total)
T67A8 000:422 JLINK_Go() -- CPU_ReadMem(4 bytes @ 0xE0001000) -- CPU_WriteMem(4 bytes @ 0xE0001000) (0003ms, 0260ms total)
T67A8 000:425 JLINK_IsHalted() -- CPU_ReadMem(2 bytes @ 0x20000000)  returns TRUE (0005ms, 0265ms total)
T67A8 000:430 JLINK_ReadReg(R15 (PC))  returns 0x20000000 (0000ms, 0260ms total)
T67A8 000:430 JLINK_ClrBPEx(BPHandle = 0x00000010)  returns 0x00 (0000ms, 0260ms total)
T67A8 000:430 JLINK_ReadReg(R0)  returns 0x00000001 (0000ms, 0260ms total)
T67A8 000:430 JLINK_WriteReg(R0, 0x00000E00)  returns 0x00 (0000ms, 0260ms total)
T67A8 000:430 JLINK_WriteReg(R1, 0x00000200)  returns 0x00 (0000ms, 0260ms total)
T67A8 000:430 JLINK_WriteReg(R2, 0x000000FF)  returns 0x00 (0000ms, 0260ms total)
T67A8 000:430 JLINK_WriteReg(R3, 0x00000000)  returns 0x00 (0000ms, 0260ms total)
T67A8 000:430 JLINK_WriteReg(R4, 0x00000000)  returns 0x00 (0000ms, 0260ms total)
T67A8 000:430 JLINK_WriteReg(R5, 0x00000000)  returns 0x00 (0000ms, 0260ms total)
T67A8 000:430 JLINK_WriteReg(R6, 0x00000000)  returns 0x00 (0000ms, 0260ms total)
T67A8 000:430 JLINK_WriteReg(R7, 0x00000000)  returns 0x00 (0000ms, 0260ms total)
T67A8 000:430 JLINK_WriteReg(R8, 0x00000000)  returns 0x00 (0000ms, 0260ms total)
T67A8 000:430 JLINK_WriteReg(R9, 0x20000188)  returns 0x00 (0000ms, 0260ms total)
T67A8 000:430 JLINK_WriteReg(R10, 0x00000000)  returns 0x00 (0000ms, 0260ms total)
T67A8 000:430 JLINK_WriteReg(R11, 0x00000000)  returns 0x00 (0000ms, 0260ms total)
T67A8 000:430 JLINK_WriteReg(R12, 0x00000000)  returns 0x00 (0000ms, 0260ms total)
T67A8 000:430 JLINK_WriteReg(R13 (SP), 0x20001000)  returns 0x00 (0000ms, 0260ms total)
T67A8 000:430 JLINK_WriteReg(R14, 0x20000001)  returns 0x00 (0000ms, 0260ms total)
T67A8 000:430 JLINK_WriteReg(R15 (PC), 0x2000009E)  returns 0x00 (0000ms, 0260ms total)
T67A8 000:430 JLINK_WriteReg(XPSR, 0x01000000)  returns 0x00 (0000ms, 0260ms total)
T67A8 000:430 JLINK_WriteReg(MSP, 0x20001000)  returns 0x00 (0000ms, 0260ms total)
T67A8 000:430 JLINK_WriteReg(PSP, 0x20001000)  returns 0x00 (0000ms, 0260ms total)
T67A8 000:430 JLINK_WriteReg(CFBP, 0x00000000)  returns 0x00 (0000ms, 0260ms total)
T67A8 000:430 JLINK_SetBPEx(Addr = 0x20000000, Type = 0xFFFFFFF2)  returns 0x00000011 (0000ms, 0260ms total)
T67A8 000:430 JLINK_Go() -- CPU_ReadMem(4 bytes @ 0xE0001000) -- CPU_WriteMem(4 bytes @ 0xE0001000) (0003ms, 0263ms total)
T67A8 000:433 JLINK_IsHalted() -- CPU_ReadMem(2 bytes @ 0x20000000)  returns TRUE (0009ms, 0272ms total)
T67A8 000:442 JLINK_ReadReg(R15 (PC))  returns 0x20000000 (0000ms, 0263ms total)
T67A8 000:442 JLINK_ClrBPEx(BPHandle = 0x00000011)  returns 0x00 (0000ms, 0263ms total)
T67A8 000:442 JLINK_ReadReg(R0)  returns 0x00000000 (0000ms, 0263ms total)
T67A8 000:442 JLINK_WriteReg(R0, 0x00001000)  returns 0x00 (0000ms, 0263ms total)
T67A8 000:442 JLINK_WriteReg(R1, 0x00000200)  returns 0x00 (0000ms, 0263ms total)
T67A8 000:442 JLINK_WriteReg(R2, 0x000000FF)  returns 0x00 (0000ms, 0263ms total)
T67A8 000:442 JLINK_WriteReg(R3, 0x00000000)  returns 0x00 (0000ms, 0263ms total)
T67A8 000:442 JLINK_WriteReg(R4, 0x00000000)  returns 0x00 (0000ms, 0263ms total)
T67A8 000:442 JLINK_WriteReg(R5, 0x00000000)  returns 0x00 (0000ms, 0263ms total)
T67A8 000:442 JLINK_WriteReg(R6, 0x00000000)  returns 0x00 (0000ms, 0263ms total)
T67A8 000:442 JLINK_WriteReg(R7, 0x00000000)  returns 0x00 (0000ms, 0263ms total)
T67A8 000:442 JLINK_WriteReg(R8, 0x00000000)  returns 0x00 (0000ms, 0263ms total)
T67A8 000:442 JLINK_WriteReg(R9, 0x20000188)  returns 0x00 (0000ms, 0263ms total)
T67A8 000:442 JLINK_WriteReg(R10, 0x00000000)  returns 0x00 (0000ms, 0263ms total)
T67A8 000:442 JLINK_WriteReg(R11, 0x00000000)  returns 0x00 (0001ms, 0264ms total)
T67A8 000:443 JLINK_WriteReg(R12, 0x00000000)  returns 0x00 (0000ms, 0264ms total)
T67A8 000:443 JLINK_WriteReg(R13 (SP), 0x20001000)  returns 0x00 (0000ms, 0264ms total)
T67A8 000:443 JLINK_WriteReg(R14, 0x20000001)  returns 0x00 (0000ms, 0264ms total)
T67A8 000:443 JLINK_WriteReg(R15 (PC), 0x20000020)  returns 0x00 (0000ms, 0264ms total)
T67A8 000:443 JLINK_WriteReg(XPSR, 0x01000000)  returns 0x00 (0000ms, 0264ms total)
T67A8 000:443 JLINK_WriteReg(MSP, 0x20001000)  returns 0x00 (0000ms, 0264ms total)
T67A8 000:443 JLINK_WriteReg(PSP, 0x20001000)  returns 0x00 (0000ms, 0264ms total)
T67A8 000:443 JLINK_WriteReg(CFBP, 0x00000000)  returns 0x00 (0000ms, 0264ms total)
T67A8 000:443 JLINK_SetBPEx(Addr = 0x20000000, Type = 0xFFFFFFF2)  returns 0x00000012 (0000ms, 0264ms total)
T67A8 000:443 JLINK_Go() -- CPU_ReadMem(4 bytes @ 0xE0001000) -- CPU_WriteMem(4 bytes @ 0xE0001000) (0002ms, 0266ms total)
T67A8 000:445 JLINK_IsHalted() -- CPU_ReadMem(2 bytes @ 0x20000000)  returns TRUE (0005ms, 0271ms total)
T67A8 000:450 JLINK_ReadReg(R15 (PC))  returns 0x20000000 (0000ms, 0266ms total)
T67A8 000:450 JLINK_ClrBPEx(BPHandle = 0x00000012)  returns 0x00 (0000ms, 0266ms total)
T67A8 000:450 JLINK_ReadReg(R0)  returns 0x00000001 (0000ms, 0266ms total)
T67A8 000:450 JLINK_WriteReg(R0, 0x00001000)  returns 0x00 (0000ms, 0266ms total)
T67A8 000:450 JLINK_WriteReg(R1, 0x00000200)  returns 0x00 (0000ms, 0266ms total)
T67A8 000:450 JLINK_WriteReg(R2, 0x000000FF)  returns 0x00 (0000ms, 0266ms total)
T67A8 000:450 JLINK_WriteReg(R3, 0x00000000)  returns 0x00 (0000ms, 0266ms total)
T67A8 000:450 JLINK_WriteReg(R4, 0x00000000)  returns 0x00 (0000ms, 0266ms total)
T67A8 000:450 JLINK_WriteReg(R5, 0x00000000)  returns 0x00 (0000ms, 0266ms total)
T67A8 000:450 JLINK_WriteReg(R6, 0x00000000)  returns 0x00 (0000ms, 0266ms total)
T67A8 000:450 JLINK_WriteReg(R7, 0x00000000)  returns 0x00 (0000ms, 0266ms total)
T67A8 000:450 JLINK_WriteReg(R8, 0x00000000)  returns 0x00 (0000ms, 0266ms total)
T67A8 000:450 JLINK_WriteReg(R9, 0x20000188)  returns 0x00 (0000ms, 0266ms total)
T67A8 000:450 JLINK_WriteReg(R10, 0x00000000)  returns 0x00 (0000ms, 0266ms total)
T67A8 000:450 JLINK_WriteReg(R11, 0x00000000)  returns 0x00 (0000ms, 0266ms total)
T67A8 000:450 JLINK_WriteReg(R12, 0x00000000)  returns 0x00 (0000ms, 0266ms total)
T67A8 000:450 JLINK_WriteReg(R13 (SP), 0x20001000)  returns 0x00 (0000ms, 0266ms total)
T67A8 000:450 JLINK_WriteReg(R14, 0x20000001)  returns 0x00 (0000ms, 0266ms total)
T67A8 000:450 JLINK_WriteReg(R15 (PC), 0x2000009E)  returns 0x00 (0000ms, 0266ms total)
T67A8 000:450 JLINK_WriteReg(XPSR, 0x01000000)  returns 0x00 (0000ms, 0266ms total)
T67A8 000:450 JLINK_WriteReg(MSP, 0x20001000)  returns 0x00 (0000ms, 0266ms total)
T67A8 000:450 JLINK_WriteReg(PSP, 0x20001000)  returns 0x00 (0000ms, 0266ms total)
T67A8 000:450 JLINK_WriteReg(CFBP, 0x00000000)  returns 0x00 (0000ms, 0266ms total)
T67A8 000:450 JLINK_SetBPEx(Addr = 0x20000000, Type = 0xFFFFFFF2)  returns 0x00000013 (0000ms, 0266ms total)
T67A8 000:450 JLINK_Go() -- CPU_ReadMem(4 bytes @ 0xE0001000) -- CPU_WriteMem(4 bytes @ 0xE0001000) (0003ms, 0269ms total)
T67A8 000:453 JLINK_IsHalted() -- CPU_ReadMem(2 bytes @ 0x20000000)  returns TRUE (0009ms, 0278ms total)
T67A8 000:462 JLINK_ReadReg(R15 (PC))  returns 0x20000000 (0000ms, 0269ms total)
T67A8 000:462 JLINK_ClrBPEx(BPHandle = 0x00000013)  returns 0x00 (0000ms, 0269ms total)
